Circuit: * C:\Users\qtest\Documents\moss\Draft2.asc

Direct Newton iteration for .op point succeeded.
Semiconductor Device Operating Points:
                        --- Bipolar Transistors ---
Name:       q1          q2
Model:  qmossnpn-x  qmossnpn-x
Ib:       3.11e-07    3.84e-08
Ic:       4.02e-06    2.72e-07
Vbe:      5.68e-01    4.99e-01
Vbc:     -1.10e+01   -1.05e+01
Vce:      1.16e+01    1.10e+01
BetaDC:   1.29e+01    7.09e+00
Gm:       1.55e-04    1.05e-05
Rpi:      1.06e+05    8.69e+05
Rx:       5.00e+01    5.00e+01
Ro:       2.12e+07    3.10e+08
Cbe:      2.01e-13    1.36e-13
Cbc:      4.46e-13    4.52e-13
Cjs:      0.00e+00    0.00e+00
BetaAC:   1.65e+01    9.14e+00
Cbx:      0.00e+00    0.00e+00
Ft:       3.81e+07    2.83e+06



Date: Mon May 20 18:50:33 2013
Total elapsed time: 0.011 seconds.

tnom = 27
temp = 27
method = trap
totiter = 15
traniter = 0
tranpoints = 0
accept = 0
rejected = 0
matrix size = 11
fillins = 0
solver = Normal
Matrix Compiler1: 752 bajtów object code size
Matrix Compiler2: 909 bajtów object code size

